
T2F0C 000:043 SEGGER J-Link V6.10i Log File (0000ms, 0020ms total)
T2F0C 000:043 DLL Compiled: Oct 25 2016 19:31:51 (0000ms, 0020ms total)
T2F0C 000:043 Logging started @ 2017-09-05 22:32 (0000ms, 0020ms total)
T2F0C 000:043 JLINK_SetWarnOutHandler(...) (0000ms, 0020ms total)
T2F0C 000:043 JLINK_OpenEx(...)
Firmware: J-Link ARM-OB STM32 compiled Aug 22 2012 19:52:04
Hardware: V7.00
S/N: 20090928
Feature(s): RDI,FlashDL,FlashBP,JFlash,GDBFullWEBSRV Webserver running on local port 19080 (0009ms, 0029ms total)
T2F0C 000:043   returns O.K. (0009ms, 0029ms total)
T2F0C 000:052 JLINK_SetErrorOutHandler(...) (0000ms, 0029ms total)
T2F0C 000:052 JLINK_ExecCommand("ProjectFile = "D:\ACTION нд╪Ч\F3\MDK-ARM\JLinkSettings.ini"", ...).   returns 0x00 (0123ms, 0152ms total)
T2F0C 000:175 JLINK_ExecCommand("Device = STM32F407VETx", ...). Device "STM32F407VE" selected.  returns 0x00 (0001ms, 0153ms total)
T2F0C 000:176 JLINK_ExecCommand("DisableConnectionTimeout", ...).   returns 0x01 (0000ms, 0153ms total)
T2F0C 000:176 JLINK_GetHardwareVersion()  returns 0x11170 (0000ms, 0153ms total)
T2F0C 000:176 JLINK_GetDLLVersion()  returns 61009 (0000ms, 0153ms total)
T2F0C 000:176 JLINK_GetFirmwareString(...) (0000ms, 0153ms total)
T2F0C 000:176 JLINK_GetDLLVersion()  returns 61009 (0000ms, 0153ms total)
T2F0C 000:176 JLINK_GetCompileDateTime() (0000ms, 0153ms total)
T2F0C 000:176 JLINK_GetFirmwareString(...) (0000ms, 0153ms total)
T2F0C 000:176 JLINK_GetHardwareVersion()  returns 0x11170 (0000ms, 0153ms total)
T2F0C 000:176 JLINK_TIF_Select(JLINKARM_TIF_SWD)  returns 0x00 (0000ms, 0153ms total)
T2F0C 000:176 JLINK_SetSpeed(5000) (0000ms, 0153ms total)
T2F0C 000:176 JLINK_GetId() >0x108 TIF>Found SWD-DP with ID 0x2BA01477 >0x0D TIF> >0x28 TIF> >0x0D TIF> >0x28 TIF> >0x0D TIF> >0x28 TIF> >0x0D TIF> >0x28 TIF> >0x0D TIF> >0x21 TIF> >0x0D TIF> >0x28 TIF> >0x0D TIF> >0x28 TIF> >0x0D TIF> >0x28 TIF> >0x0D TIF> >0x21 TIF> >0x0D TIF> >0x21 TIF> >0x0D TIF> >0x28 TIF> >0x0D TIF> >0x21 TIF> >0x0D TIF> >0x21 TIF> >0x0D TIF> >0x28 TIF> >0x0D TIF> >0x21 TIF> >0x0D TIF> >0x21 TIF> >0x0D TIF> >0x28 TIF> >0x0D TIF> >0x21 TIF> >0x0D TIF> >0x21 TIF> >0x0D TIF>
 >0x28 TIF> >0x0D TIF> >0x21 TIF> >0x0D TIF> >0x21 TIF> >0x0D TIF> >0x28 TIF> >0x0D TIF> >0x21 TIF> >0x0D TIF> >0x21 TIF> >0x108 TIF>Found SWD-DP with ID 0x2BA01477 >0x0D TIF> >0x28 TIF> >0x0D TIF> >0x28 TIF> >0x0D TIF> >0x28 TIF> >0x0D TIF> >0x28 TIF> >0x0D TIF> >0x21 TIF> >0x0D TIF> >0x28 TIF> >0x0D TIF> >0x28 TIF> >0x0D TIF> >0x21 TIF> >0x0D TIF> >0x21 TIF> >0x0D TIF> >0x21 TIF>AP-IDR: 0x24770011, Type: AHB-AP >0x0D TIF> >0x28 TIF> >0x0D TIF> >0x28 TIF> >0x0D TIF> >0x28 TIF> >0x0D TIF> >0x21 TIF>
 >0x0D TIF> >0x21 TIF> >0x0D TIF> >0x28 TIF> >0x0D TIF> >0x21 TIF> >0x0D TIF> >0x21 TIF>Found Cortex-M4 r0p1, Little endian. -- CPU_ReadMem(4 bytes @ 0xE000EDF0) -- CPU_WriteMem(4 bytes @ 0xE000EDF0) -- CPU_ReadMem(4 bytes @ 0xE0002000)FPUnit: 6 code (BP) slots and 2 literal slots -- CPU_ReadMem(4 bytes @ 0xE000EDFC) -- CPU_WriteMem(4 bytes @ 0xE000EDFC) -- CPU_ReadMem(4 bytes @ 0xE0001000) -- CPU_WriteMem(4 bytes @ 0xE0001000) -- CPU_ReadMem(4 bytes @ 0xE000ED88) -- CPU_WriteMem(4 bytes @ 0xE000ED88)
 -- CPU_ReadMem(4 bytes @ 0xE000ED88) -- CPU_WriteMem(4 bytes @ 0xE000ED88)CoreSight components:ROMTbl 0 @ E00FF000 -- CPU_ReadMem(16 bytes @ 0xE00FF000) -- CPU_ReadMem(16 bytes @ 0xE000EFF0) -- CPU_ReadMem(16 bytes @ 0xE000EFE0)ROMTbl 0 [0]: FFF0F000, CID: B105E00D, PID: 000BB00C SCS -- CPU_ReadMem(16 bytes @ 0xE0001FF0) -- CPU_ReadMem(16 bytes @ 0xE0001FE0)ROMTbl 0 [1]: FFF02000, CID: B105E00D, PID: 003BB002 DWT -- CPU_ReadMem(16 bytes @ 0xE0002FF0) -- CPU_ReadMem(16 bytes @ 0xE0002FE0)
ROMTbl 0 [2]: FFF03000, CID: B105E00D, PID: 002BB003 FPB -- CPU_ReadMem(16 bytes @ 0xE0000FF0) -- CPU_ReadMem(16 bytes @ 0xE0000FE0)ROMTbl 0 [3]: FFF01000, CID: B105E00D, PID: 003BB001 ITM -- CPU_ReadMem(16 bytes @ 0xE00FF010) -- CPU_ReadMem(16 bytes @ 0xE0040FF0) -- CPU_ReadMem(16 bytes @ 0xE0040FE0)ROMTbl 0 [4]: FFF41000, CID: B105900D, PID: 000BB9A1 TPIU -- CPU_ReadMem(16 bytes @ 0xE0041FF0) -- CPU_ReadMem(16 bytes @ 0xE0041FE0)ROMTbl 0 [5]: FFF42000, CID: B105900D, PID: 000BB925 ETM >0x0D TIF>
 >0x21 TIF>  returns 0x2BA01477 (0031ms, 0184ms total)
T2F0C 000:207 JLINK_GetDLLVersion()  returns 61009 (0000ms, 0184ms total)
T2F0C 000:207 JLINK_CORE_GetFound()  returns 0xE0000FF (0000ms, 0184ms total)
T2F0C 000:207 JLINK_GetDebugInfo(0x100) -- Value=0xE00FF000  returns 0x00 (0000ms, 0184ms total)
T2F0C 000:207 JLINK_GetDebugInfo(0x100) -- Value=0xE00FF000  returns 0x00 (0000ms, 0184ms total)
T2F0C 000:207 JLINK_GetDebugInfo(0x101) -- Value=0xE0041000  returns 0x00 (0000ms, 0184ms total)
T2F0C 000:207 JLINK_GetDebugInfo(0x102) -- Value=0x00000000  returns 0x00 (0001ms, 0185ms total)
T2F0C 000:208 JLINK_GetDebugInfo(0x103) -- Value=0xE0040000  returns 0x00 (0000ms, 0185ms total)
T2F0C 000:208 JLINK_GetDebugInfo(0x104) -- Value=0xE0000000  returns 0x00 (0000ms, 0185ms total)
T2F0C 000:208 JLINK_GetDebugInfo(0x105) -- Value=0xE0001000  returns 0x00 (0000ms, 0185ms total)
T2F0C 000:208 JLINK_GetDebugInfo(0x106) -- Value=0xE0002000  returns 0x00 (0000ms, 0185ms total)
T2F0C 000:208 JLINK_GetDebugInfo(0x107) -- Value=0xE000E000  returns 0x00 (0000ms, 0185ms total)
T2F0C 000:208 JLINK_GetDebugInfo(0x10C) -- Value=0xE000EDF0  returns 0x00 (0000ms, 0185ms total)
T2F0C 000:208 JLINK_ReadMemU32(0xE000EF40, 0x0001 Items, ...) -- CPU is running -- CPU_ReadMem(4 bytes @ 0xE000EF40) - Data: 21 00 11 10  returns 0x01 (0000ms, 0185ms total)
T2F0C 000:208 JLINK_ReadMemU32(0xE000EF44, 0x0001 Items, ...) -- CPU is running -- CPU_ReadMem(4 bytes @ 0xE000EF44) - Data: 11 00 00 11  returns 0x01 (0000ms, 0185ms total)
T2F0C 000:208 JLINK_ReadMemU32(0xE000ED00, 0x0001 Items, ...) -- CPU is running -- CPU_ReadMem(4 bytes @ 0xE000ED00) - Data: 41 C2 0F 41  returns 0x01 (0001ms, 0186ms total)
T2F0C 000:209 JLINK_SetResetType(JLINKARM_RESET_TYPE_NORMAL)  returns JLINKARM_RESET_TYPE_NORMAL (0000ms, 0186ms total)
T2F0C 000:209 JLINK_Reset() -- CPU is running -- CPU_WriteMem(4 bytes @ 0xE000EDF0) -- CPU is running -- CPU_WriteMem(4 bytes @ 0xE000EDFC) >0x35 TIF> -- CPU is running -- CPU_WriteMem(4 bytes @ 0xE000ED0C) -- CPU is running -- CPU_ReadMem(4 bytes @ 0xE000EDF0) -- CPU is running -- CPU_ReadMem(4 bytes @ 0xE000EDF0) -- CPU is running -- CPU_WriteMem(4 bytes @ 0xE000EDF0) -- CPU is running -- CPU_WriteMem(4 bytes @ 0xE000EDFC) -- CPU is running -- CPU_ReadMem(4 bytes @ 0xE000EDF0)
 -- CPU_WriteMem(4 bytes @ 0xE0002000) -- CPU_ReadMem(4 bytes @ 0xE000EDFC) -- CPU_ReadMem(4 bytes @ 0xE0001000) (0018ms, 0204ms total)
T2F0C 000:227 JLINK_ReadReg(R15 (PC))  returns 0x08004920 (0000ms, 0204ms total)
T2F0C 000:227 JLINK_ReadReg(XPSR)  returns 0x01000000 (0000ms, 0204ms total)
T2F0C 000:227 JLINK_Halt()  returns 0x00 (0000ms, 0204ms total)
T2F0C 000:227 JLINK_IsHalted()  returns TRUE (0000ms, 0204ms total)
T2F0C 000:227 JLINK_ReadMemU32(0xE000EDF0, 0x0001 Items, ...) -- CPU_ReadMem(4 bytes @ 0xE000EDF0) - Data: 03 00 03 00  returns 0x01 (0000ms, 0204ms total)
T2F0C 000:227 JLINK_WriteU32(0xE000EDF0, 0xA05F0003) -- CPU_WriteMem(4 bytes @ 0xE000EDF0)  returns 0x00 (0001ms, 0205ms total)
T2F0C 000:228 JLINK_WriteU32(0xE000EDFC, 0x01000000) -- CPU_WriteMem(4 bytes @ 0xE000EDFC)  returns 0x00 (0000ms, 0205ms total)
T2F0C 000:228 JLINK_GetHWStatus(...)  returns 0x00 (0000ms, 0205ms total)
T2F0C 000:228 JLINK_GetNumBPUnits(Type = 0xFFFFFF00)  returns 0x06 (0000ms, 0205ms total)
T2F0C 000:228 JLINK_GetNumBPUnits(Type = 0xF0)  returns 0x2000 (0000ms, 0205ms total)
T2F0C 000:228 JLINK_GetNumWPUnits()  returns 0x04 (0000ms, 0205ms total)
T2F0C 000:228 JLINK_GetSpeed()  returns 0xFA0 (0000ms, 0205ms total)
T2F0C 000:229 JLINK_ReadMemU32(0xE000E004, 0x0001 Items, ...) -- CPU_ReadMem(4 bytes @ 0xE000E004) - Data: 02 00 00 00  returns 0x01 (0000ms, 0205ms total)
T2F0C 000:229 JLINK_ReadMemU32(0xE000E004, 0x0001 Items, ...) -- CPU_ReadMem(4 bytes @ 0xE000E004) - Data: 02 00 00 00  returns 0x01 (0001ms, 0206ms total)
T2F0C 000:230 JLINK_WriteMem(0xE0001000, 0x001C Bytes, ...) - Data: 01 00 00 00 00 00 00 00 00 00 00 00 00 00 00 00 ... -- CPU_WriteMem(28 bytes @ 0xE0001000)  returns 0x1C (0001ms, 0207ms total)
T2F0C 000:231 JLINK_ReadMem (0xE0001000, 0x001C Bytes, ...) -- CPU_ReadMem(28 bytes @ 0xE0001000) - Data: 01 00 00 40 00 00 00 00 00 00 00 00 00 00 00 00 ...  returns 0x00 (0001ms, 0208ms total)
T2F0C 000:232 JLINK_ReadReg(R15 (PC))  returns 0x08004920 (0000ms, 0208ms total)
T2F0C 000:232 JLINK_ReadReg(XPSR)  returns 0x01000000 (0000ms, 0208ms total)
T2F0C 000:320 JLINK_SetResetType(JLINKARM_RESET_TYPE_NORMAL)  returns JLINKARM_RESET_TYPE_NORMAL (0000ms, 0208ms total)
T2F0C 000:320 JLINK_Reset() -- CPU_WriteMem(4 bytes @ 0xE000EDF0) -- CPU_WriteMem(4 bytes @ 0xE000EDFC) >0x35 TIF> -- CPU_WriteMem(4 bytes @ 0xE000ED0C) -- CPU_ReadMem(4 bytes @ 0xE000EDF0) -- CPU_ReadMem(4 bytes @ 0xE000EDF0) -- CPU_WriteMem(4 bytes @ 0xE000EDF0) -- CPU_WriteMem(4 bytes @ 0xE000EDFC) -- CPU is running -- CPU_ReadMem(4 bytes @ 0xE000EDF0) -- CPU_WriteMem(4 bytes @ 0xE0002000) -- CPU_ReadMem(4 bytes @ 0xE000EDFC) -- CPU_ReadMem(4 bytes @ 0xE0001000) (0017ms, 0225ms total)
T2F0C 000:337 JLINK_ReadReg(R15 (PC))  returns 0x08004920 (0000ms, 0225ms total)
T2F0C 000:337 JLINK_ReadReg(XPSR)  returns 0x01000000 (0000ms, 0225ms total)
T2F0C 000:337 JLINK_ReadMem (0x08004920, 0x003C Bytes, ...) -- CPU_ReadMem(128 bytes @ 0x08004900) -- Updating C cache (128 bytes @ 0x08004900) -- Read from C cache (60 bytes @ 0x08004920) - Data: 09 48 80 47 09 48 00 47 FE E7 FE E7 FE E7 FE E7 ...  returns 0x00 (0002ms, 0227ms total)
T2F0C 000:473 JLINK_ReadMem (0x40006400, 0x001C Bytes, ...) -- CPU_ReadMem(28 bytes @ 0x40006400) - Data: 02 00 01 00 0A 0C 00 00 00 00 00 1C 00 00 00 00 ...  returns 0x00 (0001ms, 0228ms total)
T2F0C 000:474 JLINK_ReadMem (0x4000641C, 0x0004 Bytes, ...) -- CPU_ReadMem(4 bytes @ 0x4000641C) - Data: 00 00 23 01  returns 0x00 (0000ms, 0228ms total)
T2F0C 000:474 JLINK_ReadMem (0x40006580, 0x004C Bytes, ...) -- CPU_ReadMem(76 bytes @ 0x40006580) - Data: 00 00 00 00 00 00 00 00 00 00 00 00 00 00 00 00 ...  returns 0x00 (0001ms, 0229ms total)
T2F0C 000:475 JLINK_ReadMem (0x400065CC, 0x0004 Bytes, ...) -- CPU_ReadMem(4 bytes @ 0x400065CC) - Data: 00 00 00 00  returns 0x00 (0001ms, 0230ms total)
T2F0C 000:476 JLINK_ReadMem (0x40006600, 0x0004 Bytes, ...) -- CPU_ReadMem(4 bytes @ 0x40006600) - Data: 01 0E 1C 2A  returns 0x00 (0000ms, 0230ms total)
T2F0C 000:476 JLINK_ReadMem (0x40006604, 0x0004 Bytes, ...) -- CPU_ReadMem(4 bytes @ 0x40006604) - Data: 00 00 00 00  returns 0x00 (0001ms, 0231ms total)
T2F0C 000:477 JLINK_ReadMem (0x4000660C, 0x0004 Bytes, ...) -- CPU_ReadMem(4 bytes @ 0x4000660C) - Data: 00 00 00 00  returns 0x00 (0000ms, 0231ms total)
T2F0C 000:477 JLINK_ReadMem (0x40006614, 0x0004 Bytes, ...) -- CPU_ReadMem(4 bytes @ 0x40006614) - Data: 00 00 00 00  returns 0x00 (0001ms, 0232ms total)
T2F0C 000:478 JLINK_ReadMem (0x4000661C, 0x0004 Bytes, ...) -- CPU_ReadMem(4 bytes @ 0x4000661C) - Data: 00 00 00 00  returns 0x00 (0000ms, 0232ms total)
T2F0C 000:478 JLINK_ReadMem (0x40006640, 0x00DC Bytes, ...) -- CPU_ReadMem(220 bytes @ 0x40006640) - Data: 00 00 00 00 00 00 00 00 00 00 00 00 00 00 00 00 ...  returns 0x00 (0003ms, 0235ms total)
T2F0C 000:481 JLINK_ReadMem (0x4000671C, 0x0004 Bytes, ...) -- CPU_ReadMem(4 bytes @ 0x4000671C) - Data: 00 00 00 00  returns 0x00 (0000ms, 0235ms total)
T2F0C 002:183 JLINK_ReadMem (0x20000014, 0x0001 Bytes, ...) -- CPU_ReadMem(64 bytes @ 0x20000000) -- Updating C cache (64 bytes @ 0x20000000) -- Read from C cache (1 bytes @ 0x20000014) - Data: 00  returns 0x00 (0001ms, 0236ms total)
T2F0C 002:194 JLINK_ReadMem (0x20000015, 0x0001 Bytes, ...) -- Read from C cache (1 bytes @ 0x20000015) - Data: 00  returns 0x00 (0000ms, 0236ms total)
T2F0C 002:197 JLINK_ReadMem (0x20000064, 0x0004 Bytes, ...) -- CPU_ReadMem(64 bytes @ 0x20000040) -- Updating C cache (64 bytes @ 0x20000040) -- Read from C cache (4 bytes @ 0x20000064) - Data: 01 00 00 00  returns 0x00 (0002ms, 0238ms total)
T4BC4 002:235 JLINK_SetBPEx(Addr = 0x0800028C, Type = 0xFFFFFFF2)  returns 0x00000001 (0001ms, 0239ms total)
T4BC4 002:236 JLINK_SetBPEx(Addr = 0x0800066C, Type = 0xFFFFFFF2)  returns 0x00000002 (0000ms, 0239ms total)
T4BC4 002:236 JLINK_SetBPEx(Addr = 0x08000636, Type = 0xFFFFFFF2)  returns 0x00000003 (0000ms, 0239ms total)
T4BC4 002:236 JLINK_Go() -- CPU_WriteMem(4 bytes @ 0xE0002000) -- CPU_WriteMem(4 bytes @ 0xE0002000) -- CPU_WriteMem(4 bytes @ 0xE0002000) -- CPU_ReadMem(4 bytes @ 0xE0001000) -- CPU_WriteMem(4 bytes @ 0xE0002008) -- CPU_WriteMem(4 bytes @ 0xE000200C) -- CPU_WriteMem(4 bytes @ 0xE0002010) -- CPU_WriteMem(4 bytes @ 0xE0002014) -- CPU_WriteMem(4 bytes @ 0xE0002018) -- CPU_WriteMem(4 bytes @ 0xE000201C) -- CPU_WriteMem(4 bytes @ 0xE0001004) (0006ms, 0245ms total)
T4BC4 002:342 JLINK_IsHalted()  returns TRUE (0003ms, 0248ms total)
T4BC4 002:345 JLINK_Halt()  returns 0x00 (0000ms, 0245ms total)
T4BC4 002:345 JLINK_IsHalted()  returns TRUE (0000ms, 0245ms total)
T4BC4 002:345 JLINK_IsHalted()  returns TRUE (0000ms, 0245ms total)
T4BC4 002:345 JLINK_IsHalted()  returns TRUE (0000ms, 0245ms total)
T4BC4 002:345 JLINK_ReadReg(R15 (PC))  returns 0x0800028C (0000ms, 0245ms total)
T4BC4 002:345 JLINK_ReadReg(XPSR)  returns 0x21000000 (0000ms, 0245ms total)
T4BC4 002:345 JLINK_ClrBPEx(BPHandle = 0x00000001)  returns 0x00 (0000ms, 0245ms total)
T4BC4 002:345 JLINK_ClrBPEx(BPHandle = 0x00000002)  returns 0x00 (0000ms, 0245ms total)
T4BC4 002:345 JLINK_ClrBPEx(BPHandle = 0x00000003)  returns 0x00 (0000ms, 0245ms total)
T4BC4 002:345 JLINK_ReadMemU32(0xE000ED30, 0x0001 Items, ...) -- CPU_ReadMem(4 bytes @ 0xE000ED30) - Data: 03 00 00 00  returns 0x01 (0001ms, 0246ms total)
T4BC4 002:346 JLINK_ReadMemU32(0xE0001028, 0x0001 Items, ...) -- CPU_ReadMem(4 bytes @ 0xE0001028) - Data: 00 00 00 00  returns 0x01 (0000ms, 0246ms total)
T4BC4 002:346 JLINK_ReadMemU32(0xE0001038, 0x0001 Items, ...) -- CPU_ReadMem(4 bytes @ 0xE0001038) - Data: 00 02 00 00  returns 0x01 (0001ms, 0247ms total)
T4BC4 002:347 JLINK_ReadMemU32(0xE0001048, 0x0001 Items, ...) -- CPU_ReadMem(4 bytes @ 0xE0001048) - Data: 00 00 00 00  returns 0x01 (0000ms, 0247ms total)
T4BC4 002:347 JLINK_ReadMemU32(0xE0001058, 0x0001 Items, ...) -- CPU_ReadMem(4 bytes @ 0xE0001058) - Data: 00 00 00 00  returns 0x01 (0001ms, 0248ms total)
T4BC4 002:348 JLINK_ReadReg(R0)  returns 0x20003520 (0000ms, 0248ms total)
T4BC4 002:348 JLINK_ReadReg(R1)  returns 0x20003720 (0000ms, 0248ms total)
T4BC4 002:348 JLINK_ReadReg(R2)  returns 0x20003720 (0000ms, 0248ms total)
T4BC4 002:348 JLINK_ReadReg(R3)  returns 0x20003720 (0000ms, 0248ms total)
T4BC4 002:348 JLINK_ReadReg(R4)  returns 0x00000000 (0000ms, 0248ms total)
T4BC4 002:348 JLINK_ReadReg(R5)  returns 0x200034C0 (0000ms, 0248ms total)
T4BC4 002:348 JLINK_ReadReg(R6)  returns 0x00000000 (0000ms, 0248ms total)
T4BC4 002:348 JLINK_ReadReg(R7)  returns 0x00000000 (0000ms, 0248ms total)
T4BC4 002:348 JLINK_ReadReg(R8)  returns 0x00000000 (0000ms, 0248ms total)
T4BC4 002:348 JLINK_ReadReg(R9)  returns 0x00000000 (0000ms, 0248ms total)
T4BC4 002:348 JLINK_ReadReg(R10)  returns 0x08012338 (0000ms, 0248ms total)
T4BC4 002:348 JLINK_ReadReg(R11)  returns 0x00000000 (0000ms, 0248ms total)
T4BC4 002:348 JLINK_ReadReg(R12)  returns 0x20003500 (0000ms, 0248ms total)
T4BC4 002:348 JLINK_ReadReg(R13 (SP))  returns 0x20003B20 (0000ms, 0248ms total)
T4BC4 002:348 JLINK_ReadReg(R14)  returns 0x08000253 (0000ms, 0248ms total)
T4BC4 002:348 JLINK_ReadReg(R15 (PC))  returns 0x0800028C (0000ms, 0248ms total)
T4BC4 002:348 JLINK_ReadReg(XPSR)  returns 0x21000000 (0000ms, 0248ms total)
T4BC4 002:348 JLINK_ReadReg(MSP)  returns 0x20003B20 (0000ms, 0248ms total)
T4BC4 002:348 JLINK_ReadReg(PSP)  returns 0x00000000 (0000ms, 0248ms total)
T4BC4 002:348 JLINK_ReadReg(CFBP)  returns 0x00000000 (0000ms, 0248ms total)
T4BC4 002:348 JLINK_ReadReg(FPSCR)  returns 0x00000000 (0005ms, 0253ms total)
T4BC4 002:353 JLINK_ReadReg(FPS0)  returns 0x00000000 (0000ms, 0253ms total)
T4BC4 002:353 JLINK_ReadReg(FPS1)  returns 0x00000000 (0000ms, 0253ms total)
T4BC4 002:353 JLINK_ReadReg(FPS2)  returns 0x00000000 (0000ms, 0253ms total)
T4BC4 002:353 JLINK_ReadReg(FPS3)  returns 0x00000000 (0000ms, 0253ms total)
T4BC4 002:353 JLINK_ReadReg(FPS4)  returns 0x00000000 (0000ms, 0253ms total)
T4BC4 002:353 JLINK_ReadReg(FPS5)  returns 0x00000000 (0000ms, 0253ms total)
T4BC4 002:353 JLINK_ReadReg(FPS6)  returns 0x00000000 (0000ms, 0253ms total)
T4BC4 002:353 JLINK_ReadReg(FPS7)  returns 0x00000000 (0000ms, 0253ms total)
T4BC4 002:353 JLINK_ReadReg(FPS8)  returns 0x00000000 (0000ms, 0253ms total)
T4BC4 002:353 JLINK_ReadReg(FPS9)  returns 0x00000000 (0000ms, 0253ms total)
T4BC4 002:353 JLINK_ReadReg(FPS10)  returns 0x00000000 (0000ms, 0253ms total)
T4BC4 002:353 JLINK_ReadReg(FPS11)  returns 0x00000000 (0000ms, 0253ms total)
T4BC4 002:353 JLINK_ReadReg(FPS12)  returns 0x00000000 (0000ms, 0253ms total)
T4BC4 002:353 JLINK_ReadReg(FPS13)  returns 0x00000000 (0000ms, 0253ms total)
T4BC4 002:353 JLINK_ReadReg(FPS14)  returns 0x00000000 (0000ms, 0253ms total)
T4BC4 002:353 JLINK_ReadReg(FPS15)  returns 0x00000000 (0000ms, 0253ms total)
T4BC4 002:353 JLINK_ReadReg(FPS16)  returns 0x00000000 (0000ms, 0253ms total)
T4BC4 002:353 JLINK_ReadReg(FPS17)  returns 0x00000000 (0000ms, 0253ms total)
T4BC4 002:353 JLINK_ReadReg(FPS18)  returns 0x00000000 (0000ms, 0253ms total)
T4BC4 002:353 JLINK_ReadReg(FPS19)  returns 0x00000000 (0000ms, 0253ms total)
T4BC4 002:353 JLINK_ReadReg(FPS20)  returns 0x00000000 (0000ms, 0253ms total)
T4BC4 002:353 JLINK_ReadReg(FPS21)  returns 0x00000000 (0000ms, 0253ms total)
T4BC4 002:353 JLINK_ReadReg(FPS22)  returns 0x00000000 (0000ms, 0253ms total)
T4BC4 002:353 JLINK_ReadReg(FPS23)  returns 0x00000000 (0000ms, 0253ms total)
T4BC4 002:353 JLINK_ReadReg(FPS24)  returns 0x00000000 (0000ms, 0253ms total)
T4BC4 002:353 JLINK_ReadReg(FPS25)  returns 0x00000000 (0000ms, 0253ms total)
T4BC4 002:353 JLINK_ReadReg(FPS26)  returns 0x00000000 (0000ms, 0253ms total)
T4BC4 002:353 JLINK_ReadReg(FPS27)  returns 0x00000000 (0000ms, 0253ms total)
T4BC4 002:353 JLINK_ReadReg(FPS28)  returns 0x00000000 (0000ms, 0253ms total)
T4BC4 002:353 JLINK_ReadReg(FPS29)  returns 0x00000000 (0000ms, 0253ms total)
T4BC4 002:353 JLINK_ReadReg(FPS30)  returns 0x00000000 (0000ms, 0253ms total)
T4BC4 002:354 JLINK_ReadReg(FPS31)  returns 0x00000000 (0000ms, 0253ms total)
T2F0C 002:355 JLINK_ReadMemU32(0xE0001004, 0x0001 Items, ...) -- CPU_ReadMem(4 bytes @ 0xE0001004) - Data: D9 4D 00 00  returns 0x01 (0001ms, 0254ms total)
T2F0C 002:356 JLINK_ReadMem (0x20000014, 0x0001 Bytes, ...) -- CPU_ReadMem(64 bytes @ 0x20000000) -- Updating C cache (64 bytes @ 0x20000000) -- Read from C cache (1 bytes @ 0x20000014) - Data: 00  returns 0x00 (0001ms, 0255ms total)
T2F0C 002:357 JLINK_ReadMem (0x20000015, 0x0001 Bytes, ...) -- Read from C cache (1 bytes @ 0x20000015) - Data: 00  returns 0x00 (0000ms, 0255ms total)
T2F0C 002:357 JLINK_ReadMem (0x20000064, 0x0004 Bytes, ...) -- CPU_ReadMem(64 bytes @ 0x20000040) -- Updating C cache (64 bytes @ 0x20000040) -- Read from C cache (4 bytes @ 0x20000064) - Data: 01 00 00 00  returns 0x00 (0001ms, 0256ms total)
T2F0C 002:358 JLINK_ReadMem (0x40006400, 0x001C Bytes, ...) -- CPU_ReadMem(28 bytes @ 0x40006400) - Data: 02 00 01 00 0A 0C 00 00 00 00 00 1C 00 00 00 00 ...  returns 0x00 (0001ms, 0257ms total)
T2F0C 002:359 JLINK_ReadMem (0x4000641C, 0x0004 Bytes, ...) -- CPU_ReadMem(4 bytes @ 0x4000641C) - Data: 00 00 23 01  returns 0x00 (0000ms, 0257ms total)
T2F0C 002:359 JLINK_ReadMem (0x40006580, 0x004C Bytes, ...) -- CPU_ReadMem(76 bytes @ 0x40006580) - Data: 00 00 00 00 00 00 00 00 00 00 00 00 00 00 00 00 ...  returns 0x00 (0002ms, 0259ms total)
T2F0C 002:361 JLINK_ReadMem (0x400065CC, 0x0004 Bytes, ...) -- CPU_ReadMem(4 bytes @ 0x400065CC) - Data: 00 00 00 00  returns 0x00 (0000ms, 0259ms total)
T2F0C 002:361 JLINK_ReadMem (0x40006600, 0x0004 Bytes, ...) -- CPU_ReadMem(4 bytes @ 0x40006600) - Data: 01 0E 1C 2A  returns 0x00 (0001ms, 0260ms total)
T2F0C 002:362 JLINK_ReadMem (0x40006604, 0x0004 Bytes, ...) -- CPU_ReadMem(4 bytes @ 0x40006604) - Data: 00 00 00 00  returns 0x00 (0000ms, 0260ms total)
T2F0C 002:362 JLINK_ReadMem (0x4000660C, 0x0004 Bytes, ...) -- CPU_ReadMem(4 bytes @ 0x4000660C) - Data: 00 00 00 00  returns 0x00 (0001ms, 0261ms total)
T2F0C 002:363 JLINK_ReadMem (0x40006614, 0x0004 Bytes, ...) -- CPU_ReadMem(4 bytes @ 0x40006614) - Data: 00 00 00 00  returns 0x00 (0000ms, 0261ms total)
T2F0C 002:363 JLINK_ReadMem (0x4000661C, 0x0004 Bytes, ...) -- CPU_ReadMem(4 bytes @ 0x4000661C) - Data: 00 00 00 00  returns 0x00 (0001ms, 0262ms total)
T2F0C 002:364 JLINK_ReadMem (0x40006640, 0x00DC Bytes, ...) -- CPU_ReadMem(220 bytes @ 0x40006640) - Data: 00 00 00 00 00 00 00 00 00 00 00 00 00 00 00 00 ...  returns 0x00 (0002ms, 0264ms total)
T2F0C 002:366 JLINK_ReadMem (0x4000671C, 0x0004 Bytes, ...) -- CPU_ReadMem(4 bytes @ 0x4000671C) - Data: 00 00 00 00  returns 0x00 (0001ms, 0265ms total)
T2F0C 002:371 JLINK_ReadMem (0x0800028C, 0x003C Bytes, ...) -- CPU_ReadMem(128 bytes @ 0x08000280) -- Updating C cache (128 bytes @ 0x08000280) -- Read from C cache (60 bytes @ 0x0800028C) - Data: 10 B5 86 B0 00 BF 04 F0 65 FC 05 F0 E0 F8 03 20 ...  returns 0x00 (0002ms, 0267ms total)
T4BC4 005:067 JLINK_SetBPEx(Addr = 0x0800066C, Type = 0xFFFFFFF2)  returns 0x00000004 (0001ms, 0268ms total)
T4BC4 005:068 JLINK_SetBPEx(Addr = 0x08000636, Type = 0xFFFFFFF2)  returns 0x00000005 (0000ms, 0268ms total)
T4BC4 005:068 JLINK_Go() -- CPU_WriteMem(4 bytes @ 0xE0002000) -- CPU_WriteMem(4 bytes @ 0xE0002000) -- CPU_ReadMem(4 bytes @ 0xE0001000) -- CPU_WriteMem(4 bytes @ 0xE0002008) -- CPU_WriteMem(4 bytes @ 0xE000200C) -- CPU_WriteMem(4 bytes @ 0xE0002010) (0003ms, 0271ms total)
T4BC4 005:172 JLINK_IsHalted()  returns FALSE (0000ms, 0271ms total)
T4BC4 005:274 JLINK_IsHalted()  returns FALSE (0000ms, 0271ms total)
T4BC4 005:375 JLINK_IsHalted()  returns FALSE (0000ms, 0271ms total)
T4BC4 005:476 JLINK_IsHalted()  returns FALSE (0000ms, 0271ms total)
T4BC4 005:577 JLINK_IsHalted()  returns FALSE (0000ms, 0271ms total)
T4BC4 005:678 JLINK_ReadMemU32(0xE0001004, 0x0001 Items, ...) -- CPU is running -- CPU_ReadMem(4 bytes @ 0xE0001004) - Data: 9C A2 14 06  returns 0x01 (0000ms, 0271ms total)
T2F0C 005:680 JLINK_ReadMem (0x20000014, 0x0001 Bytes, ...) -- CPU is running -- CPU_ReadMem(1 bytes @ 0x20000014) - Data: 00  returns 0x00 (0000ms, 0271ms total)
T2F0C 005:680 JLINK_ReadMem (0x20000015, 0x0001 Bytes, ...) -- CPU is running -- CPU_ReadMem(1 bytes @ 0x20000015) - Data: 00  returns 0x00 (0001ms, 0272ms total)
T2F0C 005:681 JLINK_ReadMem (0x20000064, 0x0004 Bytes, ...) -- CPU is running -- CPU_ReadMem(4 bytes @ 0x20000064) - Data: 01 00 00 00  returns 0x00 (0000ms, 0272ms total)
T2F0C 005:681 JLINK_ReadMem (0x40006400, 0x001C Bytes, ...) -- CPU is running -- CPU_ReadMem(28 bytes @ 0x40006400) - Data: 40 00 01 00 00 0C 00 00 00 00 00 1C 00 00 00 00 ...  returns 0x00 (0001ms, 0273ms total)
T2F0C 005:682 JLINK_ReadMem (0x4000641C, 0x0004 Bytes, ...) -- CPU is running -- CPU_ReadMem(4 bytes @ 0x4000641C) - Data: 03 00 7B 00  returns 0x00 (0000ms, 0273ms total)
T2F0C 005:682 JLINK_ReadMem (0x40006580, 0x004C Bytes, ...) -- CPU is running -- CPU_ReadMem(76 bytes @ 0x40006580) - Data: 00 00 00 61 A8 BB C3 23 42 47 00 40 00 00 00 00 ...  returns 0x00 (0002ms, 0275ms total)
T2F0C 005:684 JLINK_ReadMem (0x400065CC, 0x0004 Bytes, ...) -- CPU is running -- CPU_ReadMem(4 bytes @ 0x400065CC) - Data: 07 BE A5 38  returns 0x00 (0000ms, 0275ms total)
T2F0C 005:684 JLINK_ReadMem (0x40006600, 0x0004 Bytes, ...) -- CPU is running -- CPU_ReadMem(4 bytes @ 0x40006600) - Data: 00 0E 1C 2A  returns 0x00 (0000ms, 0275ms total)
T2F0C 005:684 JLINK_ReadMem (0x40006604, 0x0004 Bytes, ...) -- CPU is running -- CPU_ReadMem(4 bytes @ 0x40006604) - Data: 00 00 00 00  returns 0x00 (0001ms, 0276ms total)
T2F0C 005:685 JLINK_ReadMem (0x4000660C, 0x0004 Bytes, ...) -- CPU is running -- CPU_ReadMem(4 bytes @ 0x4000660C) - Data: 01 40 00 00  returns 0x00 (0000ms, 0276ms total)
T2F0C 005:686 JLINK_ReadMem (0x40006614, 0x0004 Bytes, ...) -- CPU is running -- CPU_ReadMem(4 bytes @ 0x40006614) - Data: 00 00 00 00  returns 0x00 (0000ms, 0276ms total)
T2F0C 005:686 JLINK_ReadMem (0x4000661C, 0x0004 Bytes, ...) -- CPU is running -- CPU_ReadMem(4 bytes @ 0x4000661C) - Data: 01 40 00 00  returns 0x00 (0001ms, 0277ms total)
T2F0C 005:687 JLINK_ReadMem (0x40006640, 0x00DC Bytes, ...) -- CPU is running -- CPU_ReadMem(220 bytes @ 0x40006640) - Data: 00 00 00 00 00 00 00 00 80 9A 54 84 AA AE 10 F1 ...  returns 0x00 (0002ms, 0279ms total)
T2F0C 005:689 JLINK_ReadMem (0x4000671C, 0x0004 Bytes, ...) -- CPU is running -- CPU_ReadMem(4 bytes @ 0x4000671C) - Data: 40 54 7C 4C  returns 0x00 (0001ms, 0280ms total)
T4BC4 005:794 JLINK_IsHalted()  returns FALSE (0000ms, 0280ms total)
